 ****** HSPICE -- G-2012.06-SP1 64-BIT (Aug 27 2012) RHEL64 ******              
  Copyright (C) 2012 Synopsys, Inc. All Rights Reserved.                        
  Unpublished-rights reserved under US copyright laws.
  This program is protected by law and is subject to the
  terms and conditions of the license agreement from Synopsys.
  Use of this program is your acceptance to be bound by the
  license agreement. HSPICE is the trademark of Synopsys, Inc.
  Input File: ./sizing/spec1/circuit_behavior_1/3stage.sp                       
  Command line options: -C -i ./sizing/spec1/circuit_behavior_1/3stage.sp -o ./sizing/spec1/circuit_behavior_1/3stage
 Init: read install configuration file: /apps/EDAs/hspice2012.06-sp1/hspice/meta.cfg
1****** HSPICE -- G-2012.06-SP1 64-BIT (Aug 27 2012) RHEL64 ******              
 ******  
 .title project: three-stage opamp

  ******  circuit name directory
 circuit number to circuit name directory
   number circuitname                     definition         multiplier
        0 main circuit
        1 xac.                            opamp              1.00 
  
      
 *****************************************************************
 ******  option summary
 ******
 runlvl  = 3         bypass  = 2         
  Opening plot unit= 15
 file=./sizing/spec1/circuit_behavior_1/3stage.pa0

1****** HSPICE -- G-2012.06-SP1 64-BIT (Aug 27 2012) RHEL64 ******              
 ******  
 .title project: three-stage opamp

  ******  operating point information tnom=  25.000 temp=  27.000 *****
 ***** operating point status is all       simulation time is     0.     
    node    =voltage      node    =voltage      node    =voltage

 +0:vin_ac  =   0.      0:vo_ac   =   0.      1:node1   =   0.     
 +1:node2   =   0.     


 **** voltage sources

 subckt             
 element  0:vin     
  volts      0.     
  current    0.     
  power      0.     

     total voltage source power dissipation=    0.            watts



 **** resistors

 subckt   xac        xac        xac        xac        xac       
 element  1:rprs_in_ 1:rprs_1_2 1:rprs_2_o 1:r_l      1:rprs_nod
  r value  183.1353k  237.9180k  883.8022k    1.0000x    4.9070x
  v drop     0.         0.         0.         0.         0.     
  current    0.         0.         0.         0.         0.     
  power      0.         0.         0.         0.         0.     


 **** voltage-controlled current sources


 subckt     xac        xac        xac        xac     
 element  1:g_in_1   1:g_1_2    1:g_2_out  1:g_node1_
  v drop     0.         0.         0.         0.     
  current    0.         0.         0.         0.     



 ***************************************************
   ******   pole/zero analysis  
  
  
    input =  0:vin          output = v(vo_ac)
  
       poles (rad/sec)                 poles ( hertz)
 real            imag            real            imag            
 -13.4913k       0.              -2.14721k       0.              
 -18.1929x       71.4123x        -2.89548x       11.3656x        
 -18.1929x       -71.4123x       -2.89548x       -11.3656x       
  
       zeros (rad/sec)                 zeros ( hertz)
 real            imag            real            imag            
 572.558x        0.              91.1255x        0.              
 -2.07486g       0.              -330.224x       0.              
  
  ***** constant factor = -9.20331x
 ******  
 .title project: three-stage opamp

  ******  ac analysis tnom=  25.000 temp=  27.000 *****
x

        freq    volt db    
                   vo_ac   
    1.00000     103.4768   
    1.02329     103.4768   
    1.04713     103.4768   
    1.07152     103.4768   
    1.09648     103.4768   
    1.12202     103.4768   
    1.14815     103.4768   
    1.17490     103.4768   
    1.20226     103.4768   
    1.23027     103.4768   
    1.25893     103.4768   
    1.28825     103.4768   
    1.31826     103.4768   
    1.34896     103.4768   
    1.38038     103.4768   
    1.41254     103.4768   
    1.44544     103.4768   
    1.47911     103.4768   
    1.51356     103.4768   
    1.54882     103.4768   
    1.58489     103.4768   
    1.62181     103.4768   
    1.65959     103.4768   
    1.69824     103.4768   
    1.73780     103.4768   
    1.77828     103.4768   
    1.81970     103.4768   
    1.86209     103.4768   
    1.90546     103.4768   
    1.94984     103.4768   
    1.99526     103.4768   
    2.04174     103.4768   
    2.08930     103.4768   
    2.13796     103.4768   
    2.18776     103.4768   
    2.23872     103.4768   
    2.29087     103.4768   
    2.34423     103.4768   
    2.39883     103.4768   
    2.45471     103.4768   
    2.51189     103.4768   
    2.57040     103.4768   
    2.63027     103.4768   
    2.69153     103.4768   
    2.75423     103.4768   
    2.81838     103.4768   
    2.88403     103.4768   
    2.95121     103.4768   
    3.01995     103.4768   
    3.09030     103.4768   
    3.16228     103.4768   
    3.23594     103.4768   
    3.31131     103.4768   
    3.38844     103.4768   
    3.46737     103.4768   
    3.54813     103.4768   
    3.63078     103.4768   
    3.71535     103.4768   
    3.80189     103.4768   
    3.89045     103.4768   
    3.98107     103.4768   
    4.07380     103.4768   
    4.16869     103.4768   
    4.26580     103.4768   
    4.36516     103.4768   
    4.46684     103.4768   
    4.57088     103.4768   
    4.67735     103.4768   
    4.78630     103.4768   
    4.89779     103.4768   
    5.01187     103.4768   
    5.12861     103.4768   
    5.24807     103.4768   
    5.37032     103.4768   
    5.49541     103.4768   
    5.62341     103.4768   
    5.75440     103.4768   
    5.88844     103.4768   
    6.02560     103.4768   
    6.16595     103.4768   
    6.30957     103.4768   
    6.45654     103.4768   
    6.60693     103.4768   
    6.76083     103.4768   
    6.91831     103.4768   
    7.07946     103.4768   
    7.24436     103.4768   
    7.41310     103.4768   
    7.58578     103.4768   
    7.76247     103.4768   
    7.94328     103.4768   
    8.12831     103.4768   
    8.31764     103.4768   
    8.51138     103.4768   
    8.70964     103.4768   
    8.91251     103.4768   
    9.12011     103.4768   
    9.33254     103.4768   
    9.54993     103.4768   
    9.77237     103.4768   
   10.00000     103.4767   
   10.23293     103.4767   
   10.47129     103.4767   
   10.71519     103.4767   
   10.96478     103.4767   
   11.22018     103.4767   
   11.48154     103.4767   
   11.74898     103.4767   
   12.02264     103.4767   
   12.30269     103.4767   
   12.58925     103.4767   
   12.88250     103.4767   
   13.18257     103.4767   
   13.48963     103.4767   
   13.80384     103.4767   
   14.12538     103.4767   
   14.45440     103.4766   
   14.79108     103.4766   
   15.13561     103.4766   
   15.48817     103.4766   
   15.84893     103.4766   
   16.21810     103.4766   
   16.59587     103.4766   
   16.98244     103.4766   
   17.37801     103.4766   
   17.78279     103.4765   
   18.19701     103.4765   
   18.62087     103.4765   
   19.05461     103.4765   
   19.49845     103.4765   
   19.95262     103.4765   
   20.41738     103.4764   
   20.89296     103.4764   
   21.37962     103.4764   
   21.87762     103.4764   
   22.38721     103.4764   
   22.90868     103.4763   
   23.44229     103.4763   
   23.98833     103.4763   
   24.54709     103.4763   
   25.11886     103.4762   
   25.70396     103.4762   
   26.30268     103.4762   
   26.91535     103.4762   
   27.54229     103.4761   
   28.18383     103.4761   
   28.84032     103.4761   
   29.51209     103.4760   
   30.19952     103.4760   
   30.90295     103.4759   
   31.62278     103.4759   
   32.35937     103.4759   
   33.11311     103.4758   
   33.88442     103.4758   
   34.67369     103.4757   
   35.48134     103.4757   
   36.30781     103.4756   
   37.15352     103.4755   
   38.01894     103.4755   
   38.90451     103.4754   
   39.81072     103.4753   
   40.73803     103.4753   
   41.68694     103.4752   
   42.65795     103.4751   
   43.65158     103.4750   
   44.66836     103.4750   
   45.70882     103.4749   
   46.77351     103.4748   
   47.86301     103.4747   
   48.97788     103.4746   
   50.11872     103.4745   
   51.28614     103.4744   
   52.48075     103.4742   
   53.70318     103.4741   
   54.95409     103.4740   
   56.23413     103.4739   
   57.54399     103.4737   
   58.88437     103.4736   
   60.25596     103.4734   
   61.65950     103.4733   
   63.09573     103.4731   
   64.56542     103.4729   
   66.06934     103.4727   
   67.60830     103.4725   
   69.18310     103.4723   
   70.79458     103.4721   
   72.44360     103.4719   
   74.13102     103.4717   
   75.85776     103.4714   
   77.62471     103.4712   
   79.43282     103.4709   
   81.28305     103.4706   
   83.17638     103.4703   
   85.11380     103.4700   
   87.09636     103.4697   
   89.12509     103.4694   
   91.20108     103.4690   
   93.32543     103.4686   
   95.49926     103.4683   
   97.72372     103.4679   
  100.00000     103.4674   
  102.32930     103.4670   
  104.71285     103.4665   
  107.15193     103.4660   
  109.64782     103.4655   
  112.20185     103.4650   
  114.81536     103.4644   
  117.48976     103.4639   
  120.22644     103.4632   
  123.02688     103.4626   
  125.89254     103.4619   
  128.82496     103.4612   
  131.82567     103.4605   
  134.89629     103.4597   
  138.03843     103.4589   
  141.25375     103.4581   
  144.54398     103.4572   
  147.91084     103.4563   
  151.35612     103.4553   
  154.88166     103.4543   
  158.48932     103.4532   
  162.18101     103.4521   
  165.95869     103.4510   
  169.82437     103.4498   
  173.78008     103.4485   
  177.82794     103.4472   
  181.97009     103.4458   
  186.20871     103.4443   
  190.54607     103.4428   
  194.98446     103.4412   
  199.52623     103.4395   
  204.17379     103.4378   
  208.92961     103.4359   
  213.79621     103.4340   
  218.77616     103.4320   
  223.87211     103.4299   
  229.08677     103.4277   
  234.42288     103.4254   
  239.88329     103.4230   
  245.47089     103.4205   
  251.18864     103.4178   
  257.03958     103.4150   
  263.02680     103.4122   
  269.15348     103.4091   
  275.42287     103.4060   
  281.83829     103.4027   
  288.40315     103.3992   
  295.12092     103.3956   
  301.99517     103.3918   
  309.02954     103.3878   
  316.22777     103.3837   
  323.59366     103.3793   
  331.13112     103.3748   
  338.84416     103.3700   
  346.73685     103.3650   
  354.81339     103.3598   
  363.07805     103.3544   
  371.53523     103.3487   
  380.18940     103.3428   
  389.04514     103.3366   
  398.10717     103.3301   
  407.38028     103.3233   
  416.86938     103.3162   
  426.57952     103.3087   
  436.51583     103.3010   
  446.68359     103.2928   
  457.08819     103.2844   
  467.73514     103.2755   
  478.63009     103.2662   
  489.77882     103.2566   
  501.18723     103.2465   
  512.86138     103.2359   
  524.80746     103.2249   
  537.03180     103.2133   
  549.54087     103.2013   
  562.34133     103.1887   
  575.43994     103.1756   
  588.84366     103.1619   
  602.55959     103.1476   
  616.59500     103.1327   
  630.95734     103.1172   
  645.65423     103.1009   
  660.69345     103.0840   
  676.08298     103.0663   
  691.83097     103.0479   
  707.94578     103.0287   
  724.43596     103.0087   
  741.31024     102.9878   
  758.57758     102.9660   
  776.24712     102.9434   
  794.32823     102.9198   
  812.83052     102.8952   
  831.76377     102.8697   
  851.13804     102.8430   
  870.96359     102.8153   
  891.25094     102.7865   
  912.01084     102.7565   
  933.25430     102.7254   
  954.99259     102.6930   
  977.23722     102.6593   
    1.00000k    102.6243   
    1.02329k    102.5880   
    1.04713k    102.5503   
    1.07152k    102.5111   
    1.09648k    102.4705   
    1.12202k    102.4284   
    1.14815k    102.3847   
    1.17490k    102.3394   
    1.20226k    102.2925   
    1.23027k    102.2439   
    1.25893k    102.1936   
    1.28825k    102.1416   
    1.31826k    102.0878   
    1.34896k    102.0321   
    1.38038k    101.9745   
    1.41254k    101.9151   
    1.44544k    101.8537   
    1.47911k    101.7903   
    1.51356k    101.7250   
    1.54882k    101.6576   
    1.58489k    101.5881   
    1.62181k    101.5165   
    1.65959k    101.4428   
    1.69824k    101.3669   
    1.73780k    101.2888   
    1.77828k    101.2086   
    1.81970k    101.1261   
    1.86209k    101.0414   
    1.90546k    100.9544   
    1.94984k    100.8651   
    1.99526k    100.7736   
    2.04174k    100.6798   
    2.08930k    100.5837   
    2.13796k    100.4853   
    2.18776k    100.3845   
    2.23872k    100.2815   
    2.29087k    100.1762   
    2.34423k    100.0686   
    2.39883k     99.9587   
    2.45471k     99.8465   
    2.51189k     99.7321   
    2.57040k     99.6154   
    2.63027k     99.4965   
    2.69153k     99.3754   
    2.75423k     99.2521   
    2.81838k     99.1266   
    2.88403k     98.9990   
    2.95121k     98.8692   
    3.01995k     98.7374   
    3.09030k     98.6036   
    3.16228k     98.4677   
    3.23594k     98.3298   
    3.31131k     98.1900   
    3.38844k     98.0482   
    3.46737k     97.9046   
    3.54813k     97.7591   
    3.63078k     97.6118   
    3.71535k     97.4628   
    3.80189k     97.3120   
    3.89045k     97.1595   
    3.98107k     97.0054   
    4.07380k     96.8497   
    4.16869k     96.6924   
    4.26580k     96.5336   
    4.36516k     96.3733   
    4.46684k     96.2115   
    4.57088k     96.0483   
    4.67735k     95.8838   
    4.78630k     95.7180   
    4.89779k     95.5509   
    5.01187k     95.3825   
    5.12861k     95.2129   
    5.24807k     95.0422   
    5.37032k     94.8703   
    5.49541k     94.6973   
    5.62341k     94.5233   
    5.75440k     94.3482   
    5.88844k     94.1722   
    6.02560k     93.9952   
    6.16595k     93.8172   
    6.30957k     93.6384   
    6.45654k     93.4588   
    6.60693k     93.2783   
    6.76083k     93.0970   
    6.91831k     92.9149   
    7.07946k     92.7321   
    7.24436k     92.5486   
    7.41310k     92.3645   
    7.58578k     92.1796   
    7.76247k     91.9941   
    7.94328k     91.8081   
    8.12831k     91.6214   
    8.31764k     91.4342   
    8.51138k     91.2464   
    8.70964k     91.0581   
    8.91251k     90.8693   
    9.12011k     90.6800   
    9.33254k     90.4903   
    9.54993k     90.3002   
    9.77237k     90.1096   
   10.00000k     89.9186   
   10.23293k     89.7272   
   10.47129k     89.5355   
   10.71519k     89.3434   
   10.96478k     89.1509   
   11.22018k     88.9581   
   11.48154k     88.7651   
   11.74898k     88.5717   
   12.02264k     88.3780   
   12.30269k     88.1840   
   12.58925k     87.9898   
   12.88250k     87.7953   
   13.18257k     87.6006   
   13.48963k     87.4057   
   13.80384k     87.2105   
   14.12538k     87.0151   
   14.45440k     86.8196   
   14.79108k     86.6238   
   15.13561k     86.4278   
   15.48817k     86.2317   
   15.84893k     86.0354   
   16.21810k     85.8389   
   16.59587k     85.6423   
   16.98244k     85.4455   
   17.37801k     85.2486   
   17.78279k     85.0515   
   18.19701k     84.8543   
   18.62087k     84.6570   
   19.05461k     84.4596   
   19.49845k     84.2620   
   19.95262k     84.0644   
   20.41738k     83.8666   
   20.89296k     83.6687   
   21.37962k     83.4708   
   21.87762k     83.2727   
   22.38721k     83.0746   
   22.90868k     82.8764   
   23.44229k     82.6781   
   23.98833k     82.4797   
   24.54709k     82.2813   
   25.11886k     82.0828   
   25.70396k     81.8842   
   26.30268k     81.6855   
   26.91535k     81.4868   
   27.54229k     81.2881   
   28.18383k     81.0892   
   28.84032k     80.8904   
   29.51209k     80.6915   
   30.19952k     80.4925   
   30.90295k     80.2935   
   31.62278k     80.0944   
   32.35937k     79.8953   
   33.11311k     79.6962   
   33.88442k     79.4970   
   34.67369k     79.2978   
   35.48134k     79.0985   
   36.30781k     78.8992   
   37.15352k     78.6999   
   38.01894k     78.5006   
   38.90451k     78.3012   
   39.81072k     78.1018   
   40.73803k     77.9024   
   41.68694k     77.7029   
   42.65795k     77.5035   
   43.65158k     77.3039   
   44.66836k     77.1044   
   45.70882k     76.9049   
   46.77351k     76.7053   
   47.86301k     76.5057   
   48.97788k     76.3061   
   50.11872k     76.1065   
   51.28614k     75.9069   
   52.48075k     75.7072   
   53.70318k     75.5076   
   54.95409k     75.3079   
   56.23413k     75.1082   
   57.54399k     74.9085   
   58.88437k     74.7088   
   60.25596k     74.5090   
   61.65950k     74.3093   
   63.09573k     74.1095   
   64.56542k     73.9098   
   66.06934k     73.7100   
   67.60830k     73.5102   
   69.18310k     73.3104   
   70.79458k     73.1106   
   72.44360k     72.9108   
   74.13102k     72.7110   
   75.85776k     72.5112   
   77.62471k     72.3114   
   79.43282k     72.1115   
   81.28305k     71.9117   
   83.17638k     71.7118   
   85.11380k     71.5120   
   87.09636k     71.3121   
   89.12509k     71.1123   
   91.20108k     70.9124   
   93.32543k     70.7125   
   95.49926k     70.5127   
   97.72372k     70.3128   
  100.00000k     70.1129   
  102.32930k     69.9130   
  104.71285k     69.7131   
  107.15193k     69.5132   
  109.64782k     69.3133   
  112.20185k     69.1135   
  114.81536k     68.9136   
  117.48976k     68.7137   
  120.22644k     68.5138   
  123.02688k     68.3139   
  125.89254k     68.1140   
  128.82496k     67.9141   
  131.82567k     67.7142   
  134.89629k     67.5143   
  138.03843k     67.3144   
  141.25375k     67.1145   
  144.54398k     66.9146   
  147.91084k     66.7146   
  151.35612k     66.5147   
  154.88166k     66.3148   
  158.48932k     66.1149   
  162.18101k     65.9151   
  165.95869k     65.7152   
  169.82437k     65.5153   
  173.78008k     65.3154   
  177.82794k     65.1155   
  181.97009k     64.9156   
  186.20871k     64.7157   
  190.54607k     64.5158   
  194.98446k     64.3159   
  199.52623k     64.1161   
  204.17379k     63.9162   
  208.92961k     63.7163   
  213.79621k     63.5165   
  218.77616k     63.3166   
  223.87211k     63.1167   
  229.08677k     62.9169   
  234.42288k     62.7171   
  239.88329k     62.5172   
  245.47089k     62.3174   
  251.18864k     62.1176   
  257.03958k     61.9177   
  263.02680k     61.7179   
  269.15348k     61.5181   
  275.42287k     61.3183   
  281.83829k     61.1185   
  288.40315k     60.9188   
  295.12092k     60.7190   
  301.99517k     60.5192   
  309.02954k     60.3195   
  316.22777k     60.1197   
  323.59366k     59.9200   
  331.13112k     59.7203   
  338.84416k     59.5206   
  346.73685k     59.3209   
  354.81339k     59.1212   
  363.07805k     58.9216   
  371.53523k     58.7219   
  380.18940k     58.5223   
  389.04514k     58.3227   
  398.10717k     58.1231   
  407.38028k     57.9235   
  416.86938k     57.7240   
  426.57952k     57.5244   
  436.51583k     57.3249   
  446.68359k     57.1254   
  457.08819k     56.9260   
  467.73514k     56.7265   
  478.63009k     56.5271   
  489.77882k     56.3277   
  501.18723k     56.1283   
  512.86138k     55.9290   
  524.80746k     55.7297   
  537.03180k     55.5304   
  549.54087k     55.3312   
  562.34133k     55.1320   
  575.43994k     54.9328   
  588.84366k     54.7337   
  602.55959k     54.5346   
  616.59500k     54.3356   
  630.95734k     54.1366   
  645.65423k     53.9377   
  660.69345k     53.7388   
  676.08298k     53.5399   
  691.83097k     53.3411   
  707.94578k     53.1424   
  724.43596k     52.9437   
