 ****** HSPICE -- G-2012.06-SP1 64-BIT (Aug 27 2012) RHEL64 ******              
  Copyright (C) 2012 Synopsys, Inc. All Rights Reserved.                        
  Unpublished-rights reserved under US copyright laws.
  This program is protected by law and is subject to the
  terms and conditions of the license agreement from Synopsys.
  Use of this program is your acceptance to be bound by the
  license agreement. HSPICE is the trademark of Synopsys, Inc.
  Input File: ./sizing/circuit_behavior/3stage.sp                               
  Command line options: -C -i ./sizing/circuit_behavior/3stage.sp -o ./sizing/circuit_behavior/3stage
 Init: read install configuration file: /apps/EDAs/hspice2012.06-sp1/hspice/meta.cfg
1****** HSPICE -- G-2012.06-SP1 64-BIT (Aug 27 2012) RHEL64 ******              
 ******  
 .title project: three-stage opamp

  ******  circuit name directory
 circuit number to circuit name directory
   number circuitname                     definition         multiplier
        0 main circuit
        1 xac.                            opamp              1.00 
  
      
 *****************************************************************
 ******  option summary
 ******
 runlvl  = 3         bypass  = 2         
  Opening plot unit= 15
 file=./sizing/circuit_behavior/3stage.pa0

1****** HSPICE -- G-2012.06-SP1 64-BIT (Aug 27 2012) RHEL64 ******              
 ******  
 .title project: three-stage opamp

  ******  operating point information tnom=  25.000 temp=  27.000 *****
 ***** operating point status is all       simulation time is     0.     
    node    =voltage      node    =voltage      node    =voltage

 +0:vin_ac  =   0.      0:vo_ac   =   0.      1:node1   =   0.     
 +1:node2   =   0.      1:node2_no=   0.     


 **** voltage sources

 subckt             
 element  0:vin     
  volts      0.     
  current    0.     
  power      0.     

     total voltage source power dissipation=    0.            watts



 **** resistors

 subckt   xac        xac        xac        xac        xac        xac       
 element  1:rprs_in_ 1:rprs_1_2 1:rprs_2_o 1:r_l      1:rprs_nod 1:r_node2_
  r value   68.5039k    4.6605x  162.9252k    1.0000x  126.1138k  961.3015k
  v drop     0.         0.         0.         0.         0.         0.     
  current    0.         0.         0.         0.         0.         0.     
  power      0.         0.         0.         0.         0.         0.     


 **** voltage-controlled current sources


 subckt     xac        xac        xac        xac     
 element  1:g_in_1   1:g_1_2    1:g_2_out  1:g_node1_
  v drop     0.         0.         0.         0.     
  current    0.         0.         0.         0.     



 ***************************************************
   ******   pole/zero analysis  
  
  
    input =  0:vin          output = v(vo_ac)
  
       poles (rad/sec)                 poles ( hertz)
 real            imag            real            imag            
 -604.639        0.              -96.2313        0.              
 -175.621k       0.              -27.9510k       0.              
 -728.282k       0.              -115.910k       0.              
 -2.98179x       0.              -474.567k       0.              
  
       zeros (rad/sec)                 zeros ( hertz)
 real            imag            real            imag            
 -211.512k       0.              -33.6633k       0.              
 -1.62476x       0.              -258.589k       0.              
 90.5204x        0.              14.4068x        0.              
  
  ***** constant factor = -901.418k
 ******  
 .title project: three-stage opamp

  ******  ac analysis tnom=  25.000 temp=  27.000 *****
x

        freq    volt db    
                   vo_ac   
    1.00000     101.6985   
    1.02329     101.6985   
    1.04713     101.6985   
    1.07152     101.6984   
    1.09648     101.6984   
    1.12202     101.6984   
    1.14815     101.6984   
    1.17490     101.6983   
    1.20226     101.6983   
    1.23027     101.6983   
    1.25893     101.6982   
    1.28825     101.6982   
    1.31826     101.6982   
    1.34896     101.6981   
    1.38038     101.6981   
    1.41254     101.6980   
    1.44544     101.6980   
    1.47911     101.6979   
    1.51356     101.6979   
    1.54882     101.6978   
    1.58489     101.6978   
    1.62181     101.6977   
    1.65959     101.6977   
    1.69824     101.6976   
    1.73780     101.6976   
    1.77828     101.6975   
    1.81970     101.6974   
    1.86209     101.6973   
    1.90546     101.6973   
    1.94984     101.6972   
    1.99526     101.6971   
    2.04174     101.6970   
    2.08930     101.6969   
    2.13796     101.6968   
    2.18776     101.6967   
    2.23872     101.6966   
    2.29087     101.6965   
    2.34423     101.6964   
    2.39883     101.6963   
    2.45471     101.6961   
    2.51189     101.6960   
    2.57040     101.6959   
    2.63027     101.6957   
    2.69153     101.6956   
    2.75423     101.6954   
    2.81838     101.6952   
    2.88403     101.6951   
    2.95121     101.6949   
    3.01995     101.6947   
    3.09030     101.6945   
    3.16228     101.6943   
    3.23594     101.6941   
    3.31131     101.6938   
    3.38844     101.6936   
    3.46737     101.6933   
    3.54813     101.6931   
    3.63078     101.6928   
    3.71535     101.6925   
    3.80189     101.6922   
    3.89045     101.6919   
    3.98107     101.6915   
    4.07380     101.6912   
    4.16869     101.6908   
    4.26580     101.6904   
    4.36516     101.6900   
    4.46684     101.6896   
    4.57088     101.6892   
    4.67735     101.6887   
    4.78630     101.6882   
    4.89779     101.6877   
    5.01187     101.6872   
    5.12861     101.6867   
    5.24807     101.6861   
    5.37032     101.6855   
    5.49541     101.6848   
    5.62341     101.6842   
    5.75440     101.6835   
    5.88844     101.6827   
    6.02560     101.6820   
    6.16595     101.6812   
    6.30957     101.6803   
    6.45654     101.6795   
    6.60693     101.6785   
    6.76083     101.6776   
    6.91831     101.6766   
    7.07946     101.6755   
    7.24436     101.6744   
    7.41310     101.6733   
    7.58578     101.6721   
    7.76247     101.6708   
    7.94328     101.6695   
    8.12831     101.6681   
    8.31764     101.6666   
    8.51138     101.6651   
    8.70964     101.6635   
    8.91251     101.6619   
    9.12011     101.6601   
    9.33254     101.6583   
    9.54993     101.6564   
    9.77237     101.6544   
   10.00000     101.6523   
   10.23293     101.6501   
   10.47129     101.6479   
   10.71519     101.6455   
   10.96478     101.6430   
   11.22018     101.6403   
   11.48154     101.6376   
   11.74898     101.6347   
   12.02264     101.6317   
   12.30269     101.6286   
   12.58925     101.6253   
   12.88250     101.6218   
   13.18257     101.6182   
   13.48963     101.6145   
   13.80384     101.6105   
   14.12538     101.6064   
   14.45440     101.6021   
   14.79108     101.5976   
   15.13561     101.5928   
   15.48817     101.5879   
   15.84893     101.5827   
   16.21810     101.5773   
   16.59587     101.5717   
   16.98244     101.5658   
   17.37801     101.5596   
   17.78279     101.5531   
   18.19701     101.5464   
   18.62087     101.5393   
   19.05461     101.5319   
   19.49845     101.5242   
   19.95262     101.5162   
   20.41738     101.5077   
   20.89296     101.4989   
   21.37962     101.4897   
   21.87762     101.4801   
   22.38721     101.4701   
   22.90868     101.4596   
   23.44229     101.4486   
   23.98833     101.4372   
   24.54709     101.4252   
   25.11886     101.4127   
   25.70396     101.3997   
   26.30268     101.3861   
   26.91535     101.3719   
   27.54229     101.3570   
   28.18383     101.3416   
   28.84032     101.3254   
   29.51209     101.3086   
   30.19952     101.2910   
   30.90295     101.2727   
   31.62278     101.2536   
   32.35937     101.2337   
   33.11311     101.2130   
   33.88442     101.1914   
   34.67369     101.1688   
   35.48134     101.1454   
   36.30781     101.1210   
   37.15352     101.0955   
   38.01894     101.0691   
   38.90451     101.0415   
   39.81072     101.0129   
   40.73803     100.9830   
   41.68694     100.9521   
   42.65795     100.9198   
   43.65158     100.8863   
   44.66836     100.8516   
   45.70882     100.8154   
   46.77351     100.7779   
   47.86301     100.7390   
   48.97788     100.6986   
   50.11872     100.6567   
   51.28614     100.6132   
   52.48075     100.5682   
   53.70318     100.5215   
   54.95409     100.4732   
   56.23413     100.4231   
   57.54399     100.3713   
   58.88437     100.3177   
   60.25596     100.2623   
   61.65950     100.2051   
   63.09573     100.1459   
   64.56542     100.0848   
   66.06934     100.0217   
   67.60830      99.9566   
   69.18310      99.8895   
   70.79458      99.8203   
   72.44360      99.7491   
   74.13102      99.6756   
   75.85776      99.6001   
   77.62471      99.5223   
   79.43282      99.4424   
   81.28305      99.3602   
   83.17638      99.2758   
   85.11380      99.1892   
   87.09636      99.1003   
   89.12509      99.0091   
   91.20108      98.9156   
   93.32543      98.8198   
   95.49926      98.7217   
   97.72372      98.6213   
  100.00000      98.5186   
  102.32930      98.4136   
  104.71285      98.3063   
  107.15193      98.1968   
  109.64782      98.0849   
  112.20185      97.9708   
  114.81536      97.8545   
  117.48976      97.7359   
  120.22644      97.6151   
  123.02688      97.4921   
  125.89254      97.3669   
  128.82496      97.2396   
  131.82567      97.1102   
  134.89629      96.9787   
  138.03843      96.8451   
  141.25375      96.7095   
  144.54398      96.5719   
  147.91084      96.4323   
  151.35612      96.2909   
  154.88166      96.1475   
  158.48932      96.0023   
  162.18101      95.8552   
  165.95869      95.7064   
  169.82437      95.5559   
  173.78008      95.4037   
  177.82794      95.2498   
  181.97009      95.0943   
  186.20871      94.9372   
  190.54607      94.7786   
  194.98446      94.6185   
  199.52623      94.4570   
  204.17379      94.2940   
  208.92961      94.1297   
  213.79621      93.9640   
  218.77616      93.7971   
  223.87211      93.6289   
  229.08677      93.4594   
  234.42288      93.2889   
  239.88329      93.1171   
  245.47089      92.9443   
  251.18864      92.7704   
  257.03958      92.5955   
  263.02680      92.4196   
  269.15348      92.2427   
  275.42287      92.0649   
  281.83829      91.8862   
  288.40315      91.7067   
  295.12092      91.5263   
  301.99517      91.3451   
  309.02954      91.1632   
  316.22777      90.9805   
  323.59366      90.7971   
  331.13112      90.6130   
  338.84416      90.4282   
  346.73685      90.2428   
  354.81339      90.0568   
  363.07805      89.8702   
  371.53523      89.6830   
  380.18940      89.4953   
  389.04514      89.3071   
  398.10717      89.1184   
  407.38028      88.9292   
  416.86938      88.7395   
  426.57952      88.5494   
  436.51583      88.3588   
  446.68359      88.1679   
  457.08819      87.9765   
  467.73514      87.7848   
  478.63009      87.5927   
  489.77882      87.4003   
  501.18723      87.2076   
  512.86138      87.0145   
  524.80746      86.8211   
  537.03180      86.6275   
  549.54087      86.4335   
  562.34133      86.2393   
  575.43994      86.0448   
  588.84366      85.8501   
  602.55959      85.6552   
  616.59500      85.4600   
  630.95734      85.2646   
  645.65423      85.0690   
  660.69345      84.8733   
  676.08298      84.6773   
  691.83097      84.4811   
  707.94578      84.2848   
  724.43596      84.0883   
  741.31024      83.8916   
  758.57758      83.6948   
  776.24712      83.4979   
  794.32823      83.3008   
  812.83052      83.1035   
  831.76377      82.9062   
  851.13804      82.7087   
  870.96359      82.5111   
  891.25094      82.3134   
  912.01084      82.1156   
  933.25430      81.9176   
  954.99259      81.7196   
  977.23722      81.5215   
    1.00000k     81.3233   
    1.02329k     81.1250   
    1.04713k     80.9266   
    1.07152k     80.7281   
    1.09648k     80.5296   
    1.12202k     80.3310   
    1.14815k     80.1323   
    1.17490k     79.9335   
    1.20226k     79.7347   
    1.23027k     79.5358   
    1.25893k     79.3368   
    1.28825k     79.1378   
    1.31826k     78.9387   
    1.34896k     78.7396   
    1.38038k     78.5404   
    1.41254k     78.3412   
    1.44544k     78.1419   
    1.47911k     77.9426   
    1.51356k     77.7432   
    1.54882k     77.5438   
    1.58489k     77.3443   
    1.62181k     77.1448   
    1.65959k     76.9452   
    1.69824k     76.7456   
    1.73780k     76.5460   
    1.77828k     76.3463   
    1.81970k     76.1466   
    1.86209k     75.9468   
    1.90546k     75.7470   
    1.94984k     75.5471   
    1.99526k     75.3473   
    2.04174k     75.1473   
    2.08930k     74.9474   
    2.13796k     74.7474   
    2.18776k     74.5474   
    2.23872k     74.3473   
    2.29087k     74.1472   
    2.34423k     73.9470   
    2.39883k     73.7468   
    2.45471k     73.5466   
    2.51189k     73.3464   
    2.57040k     73.1461   
    2.63027k     72.9457   
    2.69153k     72.7453   
    2.75423k     72.5449   
    2.81838k     72.3444   
    2.88403k     72.1439   
    2.95121k     71.9434   
    3.01995k     71.7428   
    3.09030k     71.5421   
    3.16228k     71.3414   
    3.23594k     71.1407   
    3.31131k     70.9399   
    3.38844k     70.7390   
    3.46737k     70.5381   
    3.54813k     70.3372   
    3.63078k     70.1362   
    3.71535k     69.9351   
    3.80189k     69.7339   
    3.89045k     69.5327   
    3.98107k     69.3315   
    4.07380k     69.1301   
    4.16869k     68.9287   
    4.26580k     68.7272   
    4.36516k     68.5257   
    4.46684k     68.3240   
    4.57088k     68.1223   
    4.67735k     67.9205   
    4.78630k     67.7186   
    4.89779k     67.5166   
    5.01187k     67.3145   
    5.12861k     67.1123   
    5.24807k     66.9100   
    5.37032k     66.7076   
    5.49541k     66.5051   
    5.62341k     66.3025   
    5.75440k     66.0997   
    5.88844k     65.8968   
    6.02560k     65.6938   
    6.16595k     65.4907   
    6.30957k     65.2874   
    6.45654k     65.0839   
    6.60693k     64.8803   
    6.76083k     64.6766   
    6.91831k     64.4726   
    7.07946k     64.2685   
    7.24436k     64.0643   
    7.41310k     63.8598   
    7.58578k     63.6551   
    7.76247k     63.4503   
    7.94328k     63.2452   
    8.12831k     63.0399   
    8.31764k     62.8344   
    8.51138k     62.6287   
    8.70964k     62.4227   
    8.91251k     62.2165   
    9.12011k     62.0100   
    9.33254k     61.8033   
    9.54993k     61.5963   
    9.77237k     61.3890   
   10.00000k     61.1814   
   10.23293k     60.9736   
   10.47129k     60.7654   
   10.71519k     60.5569   
   10.96478k     60.3480   
   11.22018k     60.1389   
   11.48154k     59.9294   
   11.74898k     59.7195   
   12.02264k     59.5093   
   12.30269k     59.2987   
   12.58925k     59.0877   
   12.88250k     58.8763   
   13.18257k     58.6645   
   13.48963k     58.4523   
   13.80384k     58.2397   
   14.12538k     58.0267   
   14.45440k     57.8133   
   14.79108k     57.5994   
   15.13561k     57.3850   
   15.48817k     57.1702   
   15.84893k     56.9549   
   16.21810k     56.7392   
   16.59587k     56.5229   
   16.98244k     56.3062   
   17.37801k     56.0891   
   17.78279k     55.8714   
   18.19701k     55.6532   
   18.62087k     55.4345   
   19.05461k     55.2154   
   19.49845k     54.9957   
   19.95262k     54.7755   
   20.41738k     54.5548   
   20.89296k     54.3336   
   21.37962k     54.1119   
   21.87762k     53.8897   
   22.38721k     53.6670   
   22.90868k     53.4437   
   23.44229k     53.2200   
   23.98833k     52.9958   
   24.54709k     52.7710   
   25.11886k     52.5458   
   25.70396k     52.3201   
   26.30268k     52.0938   
   26.91535k     51.8671   
   27.54229k     51.6399   
   28.18383k     51.4122   
   28.84032k     51.1841   
   29.51209k     50.9554   
   30.19952k     50.7263   
   30.90295k     50.4967   
   31.62278k     50.2666   
   32.35937k     50.0361   
   33.11311k     49.8050   
   33.88442k     49.5735   
   34.67369k     49.3415   
   35.48134k     49.1091   
   36.30781k     48.8761   
   37.15352k     48.6427   
   38.01894k     48.4088   
   38.90451k     48.1743   
   39.81072k     47.9394   
   40.73803k     47.7039   
   41.68694k     47.4679   
   42.65795k     47.2313   
   43.65158k     46.9942   
   44.66836k     46.7565   
   45.70882k     46.5182   
   46.77351k     46.2793   
   47.86301k     46.0398   
   48.97788k     45.7996   
   50.11872k     45.5587   
   51.28614k     45.3172   
   52.48075k     45.0749   
   53.70318k     44.8319   
   54.95409k     44.5881   
   56.23413k     44.3436   
   57.54399k     44.0982   
   58.88437k     43.8519   
   60.25596k     43.6048   
   61.65950k     43.3568   
   63.09573k     43.1078   
   64.56542k     42.8578   
   66.06934k     42.6069   
   67.60830k     42.3549   
   69.18310k     42.1019   
   70.79458k     41.8478   
   72.44360k     41.5926   
   74.13102k     41.3363   
   75.85776k     41.0787   
   77.62471k     40.8200   
   79.43282k     40.5601   
   81.28305k     40.2990   
   83.17638k     40.0366   
   85.11380k     39.7729   
   87.09636k     39.5079   
   89.12509k     39.2416   
   91.20108k     38.9740   
   93.32543k     38.7051   
   95.49926k     38.4348   
   97.72372k     38.1632   
  100.00000k     37.8902   
  102.32930k     37.6158   
  104.71285k     37.3401   
  107.15193k     37.0630   
  109.64782k     36.7845   
  112.20185k     36.5047   
  114.81536k     36.2236   
  117.48976k     35.9411   
  120.22644k     35.6574   
  123.02688k     35.3723   
  125.89254k     35.0859   
  128.82496k     34.7983   
  131.82567k     34.5094   
  134.89629k     34.2193   
  138.03843k     33.9280   
  141.25375k     33.6355   
  144.54398k     33.3420   
  147.91084k     33.0473   
  151.35612k     32.7515   
  154.88166k     32.4547   
  158.48932k     32.1568   
  162.18101k     31.8580   
  165.95869k     31.5582   
  169.82437k     31.2575   
  173.78008k     30.9560   
  177.82794k     30.6535   
  181.97009k     30.3503   
  186.20871k     30.0462   
  190.54607k     29.7414   
  194.98446k     29.4359   
  199.52623k     29.1297   
  204.17379k     28.8227   
  208.92961k     28.5151   
  213.79621k     28.2069   
  218.77616k     27.8981   
  223.87211k     27.5886   
  229.08677k     27.2786   
  234.42288k     26.9680   
  239.88329k     26.6568   
  245.47089k     26.3450   
  251.18864k     26.0327   
  257.03958k     25.7199   
  263.02680k     25.4064   
  269.15348k     25.0925   
  275.42287k     24.7779   
  281.83829k     24.4628   
  288.40315k     24.1471   
  295.12092k     23.8308   
  301.99517k     23.5138   
  309.02954k     23.1963   
  316.22777k     22.8781   
  323.59366k     22.5592   
  331.13112k     22.2396   
  338.84416k     21.9193   
  346.73685k     21.5982   
  354.81339k     21.2764   
  363.07805k     20.9537   
  371.53523k     20.6303   
  380.18940k     20.3059   
  389.04514k     19.9807   
  398.10717k     19.6546   
  407.38028k     19.3275   
  416.86938k     18.9994   
  426.57952k     18.6703   
  436.51583k     18.3402   
  446.68359k     18.0091   
  457.08819k     17.6768   
  467.73514k     17.3435   
  478.63009k     17.0090   
  489.77882k     16.6734   
  501.18723k     16.3366   
  512.86138k     15.9986   
  524.80746k     15.6594   
  537.03180k     15.3190   
  549.54087k     14.9774   
  562.34133k     14.6346   
  575.43994k     14.2904   
  588.84366k     13.9451   
  602.55959k     13.5985   
  616.59500k     13.2506   
